Using: /usr/cad/synopsys/hspice/cur/hspice/linux64/hspice bhv.sp
 ****** HSPICE -- O-2018.09 linux64 (Aug 26 2018) ******                        
  Copyright (c) 1986 - 2019 by Synopsys, Inc. All Rights Reserved.              
  This software and the associated documentation are proprietary
  to Synopsys, Inc. This software may only be used in accordance
  with the terms and conditions of a written license agreement with
  Synopsys, Inc. All other use, reproduction, or distribution of
  this software is strictly prohibited.
  Input File: bhv.sp                                                            
  Command line options: /usr/cad/synopsys/hspice/cur/hspice/linux64/hspice bhv.sp
 lic:  
 lic: FLEXlm: SDK_11.6.9.6 
 lic: USER:   ychuang              HOSTNAME: adc 
 lic: HOSTID: "b026281535a3"       PID:      84610 
 lic: Using FLEXlm license file: 
 lic: 26585@lsnctu 
 lic: Checkout 1 hspice 
 lic: License/Maintenance for hspice will expire on 14-may-2022/2018.09 
 lic: 119(in_use)/190(total) FLOATING license(s) on SERVER 26585@lsnctu 
 lic:   
  **warning** (bhv.sp:128) unknown command ".post" is ignored
1****** HSPICE -- O-2018.09 linux64 (Aug 26 2018) ******                        
 ******  
 *behavior simulation

 ****** circuit name directory
 circuit number to circuit name directory
   number circuitname                     definition         multiplier
        0 main circuit
        1 xi16.                           mod1_g103_with_1b_dac
                                                                 1.00 
        2 xi15.                           mod1               1.00 
        3 xi14.                           adder_cmp_1b_ciff2_schematic
                                                                 1.00 
        4 xclk_fb.                        clk_fb_1bit        1.00 
        5 xi16.xdac.                      dac_int_1bit       1.00 
        6 xi16.xsw3.                      tgb                1.00 
        7 xi16.xsw7.                      tgb                1.00 
        8 xi16.xswinn.                    tgb                1.00 
        9 xi16.xsw2.                      tgb                1.00 
       10 xi16.xsw6.                      tgb                1.00 
       11 xi16.xi12.                      tgb                1.00 
       12 xi16.xi13.                      tgb                1.00 
       13 xi16.xswinp.                    tgb                1.00 
       14 xi16.xop.                       fdopb              1.00 
       15 xi15.xi65.                      tgb                1.00 
       16 xi15.xsw7.                      tgb                1.00 
       17 xi15.xsw3.                      tgb                1.00 
       18 xi15.xswinn.                    tgb                1.00 
       19 xi15.xswinp.                    tgb                1.00 
       20 xi15.xsw2.                      tgb                1.00 
       21 xi15.xsw6.                      tgb                1.00 
       22 xi15.xi6.                       tgb                1.00 
       23 xi15.xi9.                       tgb                1.00 
       24 xi15.xi66.                      tgb                1.00 
       25 xi15.xop.                       fdopb              1.00 
       26 xi14.xpreamp_bhv.               preamp_cmp_b       1.00 
       27 xi14.xcmp3.                     cmp_clk            1.00 
       28 xi14.xi1.                       inv_bhv            1.00 
       29 xi14.xi52.                      tgb                1.00 
       30 xi14.xi63.                      tgb                1.00 
       31 xi14.xi62.                      tgb                1.00 
       32 xi14.xi55.                      tgb                1.00 
       33 xi14.xi56.                      tgb                1.00 
       34 xi14.xi65.                      tgb                1.00 
       35 xi14.xi64.                      tgb                1.00 
       36 xi14.xi60.                      tgb                1.00 
       37 xi14.xi59.                      tgb                1.00 
       38 xi14.xi13.                      tgb                1.00 
       39 xi14.xi9.                       tgb                1.00 
       40 xi14.xsw1.                      tgb                1.00 
       41 xi14.xi2.                       tgb                1.00 
       42 xi14.xsw4.                      tgb                1.00 
       43 xclk_fb.xi64.                   inv_bhv            1.00 
       44 xclk_fb.xi20.                   inv_bhv            1.00 
       45 xclk_fb.xi60.                   inv_bhv            1.00 
       46 xclk_fb.xi59.                   inv_bhv            1.00 
       47 xclk_fb.xi63.                   inv_bhv            1.00 
       48 xclk_fb.xi62.                   nand2_bhv          1.00 
       49 xclk_fb.xi19.                   nand2_bhv          1.00 
       50 xi16.xdac.xi6.                  tgb                1.00 
       51 xi16.xdac.xi7.                  tgb                1.00 
       52 xi16.xdac.xi40.                 tgb                1.00 
       53 xi16.xdac.xi41.                 tgb                1.00 
       54 xi14.xcmp3.xdff.                dff                1.00 
       55 xi14.xcmp3.xpreamp.             amp_cmp            1.00 
       56 xi14.xi1.xp1.                   pmos_b             1.00 
       57 xi14.xi1.xn1.                   nmos_b             1.00 
       58 xclk_fb.xi64.xp1.               pmos_b             1.00 
       59 xclk_fb.xi64.xn1.               nmos_b             1.00 
       60 xclk_fb.xi20.xp1.               pmos_b             1.00 
       61 xclk_fb.xi20.xn1.               nmos_b             1.00 
       62 xclk_fb.xi60.xp1.               pmos_b             1.00 
       63 xclk_fb.xi60.xn1.               nmos_b             1.00 
       64 xclk_fb.xi59.xp1.               pmos_b             1.00 
       65 xclk_fb.xi59.xn1.               nmos_b             1.00 
       66 xclk_fb.xi63.xp1.               pmos_b             1.00 
       67 xclk_fb.xi63.xn1.               nmos_b             1.00 
       68 xclk_fb.xi62.xn1.               nmos_b             1.00 
       69 xclk_fb.xi62.xi9.               nmos_b             1.00 
       70 xclk_fb.xi62.xp1.               pmos_b             1.00 
       71 xclk_fb.xi62.xi10.              pmos_b             1.00 
       72 xclk_fb.xi19.xn1.               nmos_b             1.00 
       73 xclk_fb.xi19.xi9.               nmos_b             1.00 
       74 xclk_fb.xi19.xp1.               pmos_b             1.00 
       75 xclk_fb.xi19.xi10.              pmos_b             1.00 
       76 xi14.xcmp3.xdff.xi13.           dlatch             1.00 
       77 xi14.xcmp3.xdff.xi14.           dlatch             1.00 
       78 xi14.xcmp3.xdff.xi13.xi2.       inv_bhv            1.00 
       79 xi14.xcmp3.xdff.xi13.xi1.       inv_bhv            1.00 
       80 xi14.xcmp3.xdff.xi13.xi29.      tgb                1.00 
       81 xi14.xcmp3.xdff.xi13.xsw1.      tgb                1.00 
       82 xi14.xcmp3.xdff.xi14.xi2.       inv_bhv            1.00 
       83 xi14.xcmp3.xdff.xi14.xi1.       inv_bhv            1.00 
       84 xi14.xcmp3.xdff.xi14.xi29.      tgb                1.00 
       85 xi14.xcmp3.xdff.xi14.xsw1.      tgb                1.00 
       86 xi14.xcmp3.xdff.xi13.xi2.xp1.   pmos_b             1.00 
       87 xi14.xcmp3.xdff.xi13.xi2.xn1.   nmos_b             1.00 
       88 xi14.xcmp3.xdff.xi13.xi1.xp1.   pmos_b             1.00 
       89 xi14.xcmp3.xdff.xi13.xi1.xn1.   nmos_b             1.00 
       90 xi14.xcmp3.xdff.xi14.xi2.xp1.   pmos_b             1.00 
       91 xi14.xcmp3.xdff.xi14.xi2.xn1.   nmos_b             1.00 
       92 xi14.xcmp3.xdff.xi14.xi1.xp1.   pmos_b             1.00 
       93 xi14.xcmp3.xdff.xi14.xi1.xn1.   nmos_b             1.00 
  **info** (bhv.sp:108) DC voltage reset to initial transient source value in source 0:vinn. new dc=0.0000D+00
  
  **warning** No connections on node iref_1; Node ignored.

  **warning** the following singular supplies were terminated to 1 meg resistor 
          supply       node1            node2
(bhv.sp:47)vdgnd                   0:dgnd             defined in subckt 0                     0:0                defined in subckt 0               
(bhv.sp:46)vdvdd                   0:dvdd             defined in subckt 0                     0:0                defined in subckt 0               
(bhv.sp:72)vp1dna                  0:p1d_b            defined in subckt 0                     0:0                defined in subckt 0               
(bhv.sp:74)vp2na                   0:p2_b             defined in subckt 0                     0:0                defined in subckt 0               
(bhv.sp:76)vp2dna                  0:p2d_b            defined in subckt 0                     0:0                defined in subckt 0               
(bhv.sp:97)vrst_b                  0:rst_b            defined in subckt 0                     0:0                defined in subckt 0               
(bhv.sp:99)vrst_m                  0:rst_matlab       defined in subckt 0                     0:0                defined in subckt 0               
(../et710/ece627_bhv_ckt.cir:65)e1                     14:vcmi             defined in subckt fdopb                 0:0                defined in subckt 0               
(../et710/ece627_bhv_ckt.cir:65)e1                     25:vcmi             defined in subckt fdopb                 0:0                defined in subckt 0               
      

Element variations(Local):   element              parameter
 *****************************************************************
 ******  option summary
 ******
 runlvl  = 3         bypass  = 2.0000    
             
 Summary of Linear Res Distribution Info
 ---------------------------------------
 |Range          |Total     |Percent(%)|
 |---------------+----------+----------|
 |1e+00  ~  1e+03|13        |7.7844    |
 |1e+03  ~  1e+05|2         |1.1976    |
 |1e+05  ~  1e+06|13        |7.7844    |
 |1e+08  ~  1e+09|2         |1.1976    |
 |1e+09  ~  1e+10|1         |0.5988    |
 |1e+11  ~  1e+12|136       |81.4371   |
 ---------------------------------------
              
             
 Summary of Linear Cap Distribution Info
 ---------------------------------------
 |Range          |Total     |Percent(%)|
 |---------------+----------+----------|
 |1e-17  ~  1e-16|68        |56.1983   |
 |1e-15  ~  1e-14|42        |34.7107   |
 |1e-14  ~  1e-13|11        |9.0909    |
 ---------------------------------------
              
             
 Summary of Detailed RC Type Statistics
 -----------------------------
 |Element Type    |Number    |
 |----------------+----------|
 |Constant Res    |158       |
 |Other Linear Res|9         |
 |                |          |
 |Constant Cap    |121       |
 -----------------------------
              
 **info** dc convergence successful at Newton-Raphson method 
 ******  
 *behavior simulation

 ****** operating point information tnom=  25.000 temp=  27.000 ******
 ****** operating point status is all       simulation time is     0.     
     node    =voltage       node    =voltage       node    =voltage

 + 0:agnd    =   0.       0:avdd    =   1.8000   0:dgnd    =   0.     
 + 0:dout    =   1.8000   0:dvdd    =   1.8000   0:inn     = 900.0000m
 + 0:inp     = 900.0000m  0:iref_1  =   0.       0:iref_2  =   0.     
 + 0:iref_3  =   0.       0:out_int1= 900.0000m  0:out_int1= 900.0000m
 + 0:out_int2= 900.0000m  0:out_int2= 900.0000m  0:p1      =   0.     
 + 0:p1_b    =   1.8000   0:p1d     =   0.       0:p1d_b   =   1.8000 
 + 0:p2      =   0.       0:p2_b    =   1.8000   0:p2d     =   0.     
 + 0:p2d_b   =   1.8000   0:pdn     =   0.       0:pvrefn  =  18.0000f
 + 0:pvrefn_b=   1.8000   0:pvrefp  =  18.0000f  0:pvrefp_b=   1.8000 
 + 0:rst     =   0.       0:rst_b   =   1.8000   0:rst_matl=   0.     
 + 0:vcm     = 900.0000m  0:vcm1    = 900.0000m  0:vrefn   =   0.     
 + 0:vrefp   =   1.8000   1:cinn    = 449.7751u  1:cinp    = 449.7751u
 + 1:dacn    = 899.1009u  1:dacp    = 899.1009u  1:opin    = 449.7751u
 + 1:opip    = 449.7751u  2:cinn    = 449.7751u  2:cinp    = 449.7751u
 + 2:dacn    = 899.1009u  2:dacp    = 899.1009u  2:opin    = 449.7751u
 + 2:opip    = 449.7751u  3:amp_n   = 900.0000m  3:amp_p   = 900.0000m
 + 3:d_b     =  18.0000f  3:net0107 = 899.1009u  3:net0137 = 899.1009u
 + 3:net0155 = 899.1009u  3:net0161 = 899.1009u  3:net082  = 899.1009u
 + 3:net088  = 899.1009u  3:opin    = 899.1009u  3:opip    = 899.1009u
 + 4:d_b     =  18.0000f  4:net43   =   1.8000   4:net48   =   1.8000 
 +14:vcmi    = 900.0000m 25:vcmi    = 900.0000m 26:on1     =   0.     
 +26:op1     =   0.      26:vcm1    = 900.0000m 27:net22   = 1.800e-27
 +28:net23   =   1.8000  43:net23   =   1.8000  44:net23   =  18.0000f
 +45:net23   =  18.0000f 46:net23   =  18.0000f 47:net23   =   1.8000 
 +48:net8    = 899.1009u 49:net8    =   1.8000  54:net275  =  18.0000f
 +55:vout1   =   0.      76:net017  =   1.8000  76:net22   =  18.0000f
 +76:net8    =   1.8000  77:net017  =   1.8000  77:net22   =  18.0000f
 +77:net8    =   1.8000  78:net23   =  18.0000f 79:net23   =   1.8000 
 +82:net23   =  18.0000f 83:net23   =   1.8000 


 **** voltage sources

 subckt                                                              
 element   0:v_refn    0:v_refp    0:v_vcm     0:vagnd     0:vavdd   
  volts       0.          1.8000    900.0000m     0.          1.8000 
  current     1.7982a    -3.6036p   -10.8108p    19.8009f   -57.6213p
  power       0.          6.4865p     9.7297p     0.        103.7183p

 subckt                                                              
 element   0:vdgnd     0:vdvdd     0:vinn      0:vinp      0:vp1a    
  volts       0.          1.8000     55.2400a     0.          0.     
  current     0.         -1.8000u    -1.8018p    -1.8018p     0.     
  power       0.          3.2400u     0.          0.          0.     

 subckt                                                              
 element   0:vp1da     0:vp1dna    0:vp1na     0:vp2a      0:vp2da   
  volts       0.          1.8000      1.8000      0.          0.     
  current     0.         -1.8000u     0.          0.          0.     
  power       0.          3.2400u     0.          0.          0.     

 subckt                                                              
 element   0:vp2dna    0:vp2na     0:vrst      0:vrst_b    0:vrst_m  
  volts       1.8000      1.8000      0.          1.8000      0.     
  current    -1.8000u    -1.8000u     0.         -1.8000u     0.     
  power       3.2400u     3.2400u     0.          3.2400u     0.     

     total voltage source power dissipation=   16.2001u       watts



 **** resistors

 subckt    xi16.xsw3   xi16.xsw3   xi16.xsw7   xi16.xsw7   xi16.xswin
 element   6:r1        6:r2        7:r1        7:r2        8:r1      
  r value   1.000e+12   1.000e+12   1.000e+12   1.000e+12   1.000e+12
  v drop    900.0000m   449.7751u   900.0000m   449.7751u   900.0000m
  current   900.0000f   449.7751a   900.0000f   449.7751a   900.0000f
  power     810.0000f   2.023e-19   810.0000f   2.023e-19   810.0000f

 subckt    xi16.xswin  xi16.xsw2   xi16.xsw2   xi16.xsw6   xi16.xsw6 
 element   8:r2        9:r1        9:r2       10:r1       10:r2      
  r value   1.000e+12   1.000e+12   1.000e+12   1.000e+12   1.000e+12
  v drop    899.1009u   449.7751u   449.7751u   449.7751u   449.7751u
  current   899.1009a   449.7751a   449.7751a   449.7751a   449.7751a
  power     8.084e-19   2.023e-19   2.023e-19   2.023e-19   2.023e-19

 subckt    xi16.xi12   xi16.xi12   xi16.xi13   xi16.xi13   xi16.xswin
 element  11:r1       11:r2       12:r1       12:r2       13:r1      
  r value   1.000e+12   1.000e+12   1.000e+12   1.000e+12   1.000e+12
  v drop    900.0000m   449.7751u   900.0000m   449.7751u   900.0000m
  current   900.0000f   449.7751a   900.0000f   449.7751a   900.0000f
  power     810.0000f   2.023e-19   810.0000f   2.023e-19   810.0000f

 subckt    xi16.xswin  xi15.xi65   xi15.xi65   xi15.xsw7   xi15.xsw7 
 element  13:r2       15:r1       15:r2       16:r1       16:r2      
  r value   1.000e+12   1.000e+12   1.000e+12   1.000e+12   1.000e+12
  v drop    899.1009u   900.0000m   899.1009u   900.0000m   449.7751u
  current   899.1009a   900.0000f   899.1009a   900.0000f   449.7751a
  power     8.084e-19   810.0000f   8.084e-19   810.0000f   2.023e-19

 subckt    xi15.xsw3   xi15.xsw3   xi15.xswin  xi15.xswin  xi15.xswin
 element  17:r1       17:r2       18:r1       18:r2       19:r1      
  r value   1.000e+12   1.000e+12   1.000e+12   1.000e+12   1.000e+12
  v drop    900.0000m   449.7751u   900.0000m   899.1009u   900.0000m
  current   900.0000f   449.7751a   900.0000f   899.1009a   900.0000f
  power     810.0000f   2.023e-19   810.0000f   8.084e-19   810.0000f

 subckt    xi15.xswin  xi15.xsw2   xi15.xsw2   xi15.xsw6   xi15.xsw6 
 element  19:r2       20:r1       20:r2       21:r1       21:r2      
  r value   1.000e+12   1.000e+12   1.000e+12   1.000e+12   1.000e+12
  v drop    899.1009u   449.7751u   449.7751u   449.7751u   449.7751u
  current   899.1009a   449.7751a   449.7751a   449.7751a   449.7751a
  power     8.084e-19   2.023e-19   2.023e-19   2.023e-19   2.023e-19

 subckt    xi15.xi6    xi15.xi6    xi15.xi9    xi15.xi9    xi15.xi66 
 element  22:r1       22:r2       23:r1       23:r2       24:r1      
  r value   1.000e+12   1.000e+12   1.000e+12   1.000e+12   1.000e+12
  v drop    900.0000m   449.7751u   900.0000m   449.7751u   900.0000m
  current   900.0000f   449.7751a   900.0000f   449.7751a   900.0000f
  power     810.0000f   2.023e-19   810.0000f   2.023e-19   810.0000f

 subckt    xi15.xi66   xi14.xprea  xi14.xprea  xi14.xprea  xi14.xi1  
 element  24:r2       26:rin      26:ron      26:rop      28:r1      
  r value   1.000e+12    10.0000g     4.0000k     4.0000k    10.0000 
  v drop    899.1009u     0.          0.          0.          0.     
  current   899.1009a     0.          0.          0.          0.     
  power     8.084e-19     0.          0.          0.          0.     

 subckt    xi14.xi52   xi14.xi52   xi14.xi63   xi14.xi63   xi14.xi62 
 element  29:r1       29:r2       30:r1       30:r2       31:r1      
  r value   1.000e+12   1.000e+12   1.000e+12   1.000e+12   1.000e+12
  v drop    900.0000m   899.1009u   900.0000m   899.1009u   900.0000m
  current   900.0000f   899.1009a   900.0000f   899.1009a   900.0000f
  power     810.0000f   8.084e-19   810.0000f   8.084e-19   810.0000f

 subckt    xi14.xi62   xi14.xi55   xi14.xi55   xi14.xi56   xi14.xi56 
 element  31:r2       32:r1       32:r2       33:r1       33:r2      
  r value   1.000e+12   1.000e+12   1.000e+12   1.000e+12   1.000e+12
  v drop    899.1009u   900.0000m   899.1009u   900.0000m   899.1009u
  current   899.1009a   900.0000f   899.1009a   900.0000f   899.1009a
  power     8.084e-19   810.0000f   8.084e-19   810.0000f   8.084e-19

 subckt    xi14.xi65   xi14.xi65   xi14.xi64   xi14.xi64   xi14.xi60 
 element  34:r1       34:r2       35:r1       35:r2       36:r1      
  r value   1.000e+12   1.000e+12   1.000e+12   1.000e+12   1.000e+12
  v drop    900.0000m   899.1009u   900.0000m   899.1009u   900.0000m
  current   900.0000f   899.1009a   900.0000f   899.1009a   900.0000f
  power     810.0000f   8.084e-19   810.0000f   8.084e-19   810.0000f

 subckt    xi14.xi60   xi14.xi59   xi14.xi59   xi14.xi13   xi14.xi13 
 element  36:r2       37:r1       37:r2       38:r1       38:r2      
  r value   1.000e+12   1.000e+12   1.000e+12   1.000e+12   1.000e+12
  v drop    899.1009u   900.0000m   899.1009u   900.0000m   899.1009u
  current   899.1009a   900.0000f   899.1009a   900.0000f   899.1009a
  power     8.084e-19   810.0000f   8.084e-19   810.0000f   8.084e-19

 subckt    xi14.xi9    xi14.xi9    xi14.xsw1   xi14.xsw1   xi14.xi2  
 element  39:r1       39:r2       40:r1       40:r2       41:r1      
  r value   1.000e+12   1.000e+12   1.000e+12   1.000e+12   1.000e+12
