Using: /usr/cad/synopsys/hspice/cur/hspice/linux64/hspice bhv2.sp
 ****** HSPICE -- O-2018.09 linux64 (Aug 26 2018) ******                        
  Copyright (c) 1986 - 2019 by Synopsys, Inc. All Rights Reserved.              
  This software and the associated documentation are proprietary
  to Synopsys, Inc. This software may only be used in accordance
  with the terms and conditions of a written license agreement with
  Synopsys, Inc. All other use, reproduction, or distribution of
  this software is strictly prohibited.
  Input File: bhv2.sp                                                           
  Command line options: /usr/cad/synopsys/hspice/cur/hspice/linux64/hspice bhv2.sp
 lic:  
 lic: FLEXlm: SDK_11.6.9.6 
 lic: USER:   ychuang              HOSTNAME: adc 
 lic: HOSTID: "b4969141dd1f"       PID:      45769 
 lic: Using FLEXlm license file: 
 lic: 26585@lsnctu 
 lic: Checkout 1 hspice 
 lic: License/Maintenance for hspice will expire on 14-may-2022/2018.09 
 lic: 120(in_use)/190(total) FLOATING license(s) on SERVER 26585@lsnctu 
 lic:   

 **warning** RUNLVL=0 option detected. RUNLVL=0 is automatically switched to RUNLVL=5 from Release H-2013.03-SP1. RUNLVL=0 is a legacy setting with poor runtime performance.


1****** HSPICE -- O-2018.09 linux64 (Aug 26 2018) ******                        
 ******  
 * idc_mod simulation

 ****** circuit name directory
 circuit number to circuit name directory
   number circuitname                     definition         multiplier
        0 main circuit
        1 xi23.                           inv_bhv            1.00 
        2 xi21.                           inv_bhv            1.00 
        3 xi20.                           inv_bhv            1.00 
        4 xi16.                           inv_bhv            1.00 
        5 xi17.                           inv_bhv            1.00 
        6 xi10.                           inv_bhv            1.00 
        7 xi9.                            inv_bhv            1.00 
        8 xi13.                           inv_bhv            1.00 
        9 xi19.                           inv_bhv            1.00 
       10 xi11.                           inv_bhv            1.00 
       11 xi18.                           nand2_bhv          1.00 
       12 xi12.                           nand2_bhv          1.00 
       13 xi22.                           nand2_bhv          1.00 
       14 xi15.                           tgb                1.00 
       15 xi32.                           tgb                1.00 
       16 xi3.                            tgb                1.00 
       17 xi5.                            tgb                1.00 
       18 xi2.                            tgb                1.00 
       19 xi31.                           tgb                1.00 
       20 xi4.                            tgb                1.00 
       21 xi24.                           tgb                1.00 
       22 xswvcmp.                        tgb                1.00 
       23 xi30.                           tgb                1.00 
       24 xi27.                           tgb                1.00 
       25 xi14.                           tgb                1.00 
       26 xop.                            fdopb              1.00 
       27 xi23.xp1.                       pmos_b             1.00 
       28 xi23.xn1.                       nmos_b             1.00 
       29 xi21.xp1.                       pmos_b             1.00 
       30 xi21.xn1.                       nmos_b             1.00 
       31 xi20.xp1.                       pmos_b             1.00 
       32 xi20.xn1.                       nmos_b             1.00 
       33 xi16.xp1.                       pmos_b             1.00 
       34 xi16.xn1.                       nmos_b             1.00 
       35 xi17.xp1.                       pmos_b             1.00 
       36 xi17.xn1.                       nmos_b             1.00 
       37 xi10.xp1.                       pmos_b             1.00 
       38 xi10.xn1.                       nmos_b             1.00 
       39 xi9.xp1.                        pmos_b             1.00 
       40 xi9.xn1.                        nmos_b             1.00 
       41 xi13.xp1.                       pmos_b             1.00 
       42 xi13.xn1.                       nmos_b             1.00 
       43 xi19.xp1.                       pmos_b             1.00 
       44 xi19.xn1.                       nmos_b             1.00 
       45 xi11.xp1.                       pmos_b             1.00 
       46 xi11.xn1.                       nmos_b             1.00 
       47 xi18.xn1.                       nmos_b             1.00 
       48 xi18.xi9.                       nmos_b             1.00 
       49 xi18.xp1.                       pmos_b             1.00 
       50 xi18.xi10.                      pmos_b             1.00 
       51 xi12.xn1.                       nmos_b             1.00 
       52 xi12.xi9.                       nmos_b             1.00 
       53 xi12.xp1.                       pmos_b             1.00 
       54 xi12.xi10.                      pmos_b             1.00 
       55 xi22.xn1.                       nmos_b             1.00 
       56 xi22.xi9.                       nmos_b             1.00 
       57 xi22.xp1.                       pmos_b             1.00 
       58 xi22.xi10.                      pmos_b             1.00 
  **info** (bhv2.sp:29) DC voltage reset to initial transient source value in source 0:vclk. new dc=0.0000D+00
  **warning** (bhv2.sp:59) Unable to find referenced node dacp; Output variable ignored. Specify a valid node.
  **warning** (bhv2.sp:59) .print/.probe statement contains unused output; the unused output is ignored.
  
  **warning** No connections on node iref; Node ignored.

  **warning** the following singular supplies were terminated to 1 meg resistor 
          supply       node1            node2
(bhv2.sp:23)vagnd                   0:agnd             defined in subckt 0                     0:0                defined in subckt 0               
(bhv2.sp:22)vavdd                   0:avdd             defined in subckt 0                     0:0                defined in subckt 0               
(bhv2.sp:26)vdsub                   0:dsub             defined in subckt 0                     0:0                defined in subckt 0               
(bhv2.sp:37)evcm1                   0:vcm1             defined in subckt 0                     0:0                defined in subckt 0               
(../../et710/ece627_bhv_ckt.cir:65)e1                     26:vcmi             defined in subckt fdopb                 0:0                defined in subckt 0               
      

Element variations(Local):   element              parameter
 *****************************************************************
 ******  option summary
 ******
 runlvl  = 5         bypass  = 2.0000    
             
 Summary of Linear Res Distribution Info
 ---------------------------------------
 |Range          |Total     |Percent(%)|
 |---------------+----------+----------|
 |1e+00  ~  1e+03|10        |9.5238    |
 |1e+05  ~  1e+06|7         |6.6667    |
 |1e+11  ~  1e+12|88        |83.8095   |
 ---------------------------------------
              
             
 Summary of Linear Cap Distribution Info
 ---------------------------------------
 |Range          |Total     |Percent(%)|
 |---------------+----------+----------|
 |1e-17  ~  1e-16|44        |75.8621   |
 |1e-15  ~  1e-14|10        |17.2414   |
 |1e-14  ~  1e-13|4         |6.8966    |
 ---------------------------------------
              
             
 Summary of Detailed RC Type Statistics
 -----------------------------
 |Element Type    |Number    |
 |----------------+----------|
 |Constant Res    |100       |
 |Other Linear Res|5         |
 |                |          |
 |Constant Cap    |58        |
 -----------------------------
              
  Opening plot unit= 15
 file=bhv2.pa0

 **info** dc convergence successful at Newton-Raphson method 
 ******  
 * idc_mod simulation

 ****** operating point information tnom=  25.000 temp=  60.000 ******
 ****** operating point status is all       simulation time is     0.     
     node    =voltage       node    =voltage       node    =voltage

 + 0:agnd    =   0.       0:avdd    =   1.0000   0:clk     =   0.     
 + 0:clk_b   =   1.0000   0:clkp    =   0.       0:clkp_b  =   1.0000 
 + 0:d       =   1.0000   0:d_b     =  10.0000f  0:dac2_n  = 249.8757u
 + 0:dac2_p  = 249.8756u  0:dac_n   = 499.9994m  0:dac_p   = 500.0006m
 + 0:dgnd    =   0.       0:dsub    =   0.       0:dvdd    =   1.0000 
 + 0:iref    =   0.       0:net0135 =  40.0000f  0:net045  =   1.0000 
 + 0:net046  =   1.0000   0:outn    = 499.9994m  0:outp    = 500.0006m
 + 0:pdac    =  10.0000f  0:pdac_b  =   1.0000   0:pdacb   =  10.0000f
 + 0:pdacb_b =   1.0000   0:pdet2   =   1.0000   0:pdet2_b =  10.0000f
 + 0:pdn     =   0.       0:ps_gnd_n= 249.8757u  0:ps_gnd_p= 249.8756u
 + 0:psamp   =   0.       0:psamp_b =   1.0000   0:vcm     = 500.0000m
 + 0:vcm1    = 500.0000m  0:vrefn   =   0.       0:vrefp   =   1.0000 
 + 1:net23   =   1.0000   2:net23   =  10.0000f  3:net23   =   1.0000 
 + 4:net23   =  10.0000f  5:net23   =   1.0000   6:net23   =   1.0000 
 + 7:net23   =   1.0000   8:net23   =   1.0000   9:net23   =  10.0000f
 +10:net23   =  10.0000f 11:net8    =  10.0000f 12:net8    =  20.0000f
 +13:net8    = 499.5005u 26:vcmi    = 500.0000m


 **** voltage sources

 subckt                                                              
 element   0:v_refn    0:v_refp    0:v_vcm     0:vagnd     0:vavdd   
  volts       0.          1.0000    500.0000m     0.          1.0000 
  current     1.0000f    -2.0010p    -1.0010p     0.         -1.0000u
  power       0.          2.0010p   500.4998f     0.          1.0000u

 subckt                                                              
 element   0:vclk      0:vclkp     0:vd        0:vdgnd     0:vdsub   
  volts       0.          0.          1.0000      0.          0.     
  current     0.          0.          0.         13.0005f     0.     
  power       0.          0.          0.          0.          0.     

 subckt                          
 element   0:vdvdd     0:vsamp   
  volts       1.0000      0.     
  current   -34.0137p     0.     
  power      34.0137p     0.     

     total voltage source power dissipation=    1.0000u       watts



 **** resistors

 subckt    xi23        xi21        xi20        xi16        xi17      
 element   1:r1        2:r1        3:r1        4:r1        5:r1      
  r value    10.0000     10.0000     10.0000     10.0000     10.0000 
  v drop      0.          0.          0.          0.          0.     
  current     0.          0.          0.          0.          0.     
  power       0.          0.          0.          0.          0.     

 subckt    xi10        xi9         xi13        xi19        xi11      
 element   6:r1        7:r1        8:r1        9:r1       10:r1      
  r value    10.0000     10.0000     10.0000     10.0000     10.0000 
  v drop      0.          0.          0.          0.          0.     
  current     0.          0.          0.          0.          0.     
  power       0.          0.          0.          0.          0.     

 subckt    xi15        xi15        xi32        xi32        xi3       
 element  14:r1       14:r2       15:r1       15:r2       16:r1      
  r value   1.000e+12   1.000e+12   1.000e+12   1.000e+12   1.000e+12
  v drop      1.0000    499.9994m   249.8757u   499.9994m   249.8757u
  current     1.0000p   499.9994f   249.8757a   499.9994f   249.8757a
  power       1.0000p   249.9994f   6.244e-20   249.9994f   6.244e-20

 subckt    xi3         xi5         xi5         xi2         xi2       
 element  16:r2       17:r1       17:r2       18:r1       18:r2      
  r value   1.000e+12   1.000e+12   1.000e+12   1.000e+12   1.000e+12
  v drop    500.0000m   249.8756u   249.8756u   249.8757u   249.8757u
  current   500.0000f   249.8756a   249.8756a   249.8757a   249.8757a
  power     250.0000f   6.244e-20   6.244e-20   6.244e-20   6.244e-20

 subckt    xi31        xi31        xi4         xi4         xi24      
 element  19:r1       19:r2       20:r1       20:r2       21:r1      
  r value   1.000e+12   1.000e+12   1.000e+12   1.000e+12   1.000e+12
  v drop    249.8756u   500.0006m   249.8756u   500.0000m     1.0000 
  current   249.8756a   500.0006f   249.8756a   500.0000f     1.0000p
  power     6.244e-20   250.0006f   6.244e-20   250.0000f     1.0000p

 subckt    xi24        xswvcmp     xswvcmp     xi30        xi30      
 element  21:r2       22:r1       22:r2       23:r1       23:r2      
  r value   1.000e+12   1.000e+12   1.000e+12   1.000e+12   1.000e+12
  v drop    500.0006m     0.        499.9994m   500.0006m   500.0006m
  current   500.0006f     0.        499.9994f   500.0006f   500.0006f
  power     250.0006f     0.        249.9994f   250.0006f   250.0006f

 subckt    xi27        xi27        xi14        xi14        xi23.xp1  
 element  24:r1       24:r2       25:r1       25:r2       27:r1      
  r value   1.000e+12   1.000e+12   1.000e+12   1.000e+12   1.000e+12
  v drop    499.9994m   499.9994m     0.        500.0006m     1.0000 
  current   499.9994f   499.9994f     0.        500.0006f     1.0000p
  power     249.9994f   249.9994f     0.        250.0006f     1.0000p

 subckt    xi23.xp1    xi23.xn1    xi23.xn1    xi21.xp1    xi21.xp1  
 element  27:r2       28:r1       28:r2       29:r1       29:r2      
  r value   1.000e+12   1.000e+12   1.000e+12   1.000e+12   1.000e+12
  v drop      1.0000      1.0000      0.         10.0000f     1.0000 
  current     1.0000p     1.0000p     0.        1.000e-26     1.0000p
  power       1.0000p     1.0000p     0.          0.          1.0000p

 subckt    xi21.xn1    xi21.xn1    xi20.xp1    xi20.xp1    xi20.xn1  
 element  30:r1       30:r2       31:r1       31:r2       32:r1      
  r value   1.000e+12   1.000e+12   1.000e+12   1.000e+12   1.000e+12
  v drop     10.0000f     0.          1.0000      1.0000      1.0000 
  current   1.000e-26     0.          1.0000p     1.0000p     1.0000p
  power       0.          0.          1.0000p     1.0000p     1.0000p

 subckt    xi20.xn1    xi16.xp1    xi16.xp1    xi16.xn1    xi16.xn1  
 element  32:r2       33:r1       33:r2       34:r1       34:r2      
  r value   1.000e+12   1.000e+12   1.000e+12   1.000e+12   1.000e+12
  v drop      0.         10.0000f     1.0000     10.0000f     0.     
  current     0.        1.000e-26     1.0000p   1.000e-26     0.     
  power       0.          0.          1.0000p     0.          0.     

 subckt    xi17.xp1    xi17.xp1    xi17.xn1    xi17.xn1    xi10.xp1  
 element  35:r1       35:r2       36:r1       36:r2       37:r1      
  r value   1.000e+12   1.000e+12   1.000e+12   1.000e+12   1.000e+12
  v drop      1.0000      1.0000      1.0000      0.          1.0000 
  current     1.0000p     1.0000p     1.0000p     0.          1.0000p
  power       1.0000p     1.0000p     1.0000p     0.          1.0000p

 subckt    xi10.xp1    xi10.xn1    xi10.xn1    xi9.xp1     xi9.xp1   
 element  37:r2       38:r1       38:r2       39:r1       39:r2      
  r value   1.000e+12   1.000e+12   1.000e+12   1.000e+12   1.000e+12
  v drop      1.0000      1.0000      0.          1.0000      1.0000 
  current     1.0000p     1.0000p     0.          1.0000p     1.0000p
  power       1.0000p     1.0000p     0.          1.0000p     1.0000p

 subckt    xi9.xn1     xi9.xn1     xi13.xp1    xi13.xp1    xi13.xn1  
 element  40:r1       40:r2       41:r1       41:r2       42:r1      
  r value   1.000e+12   1.000e+12   1.000e+12   1.000e+12   1.000e+12
  v drop      1.0000      0.          1.0000      1.0000      1.0000 
  current     1.0000p     0.          1.0000p     1.0000p     1.0000p
  power       1.0000p     0.          1.0000p     1.0000p     1.0000p

 subckt    xi13.xn1    xi19.xp1    xi19.xp1    xi19.xn1    xi19.xn1  
 element  42:r2       43:r1       43:r2       44:r1       44:r2      
  r value   1.000e+12   1.000e+12   1.000e+12   1.000e+12   1.000e+12
  v drop      0.         10.0000f     1.0000     10.0000f     0.     
  current     0.        1.000e-26     1.0000p   1.000e-26     0.     
  power       0.          0.          1.0000p     0.          0.     

 subckt    xi11.xp1    xi11.xp1    xi11.xn1    xi11.xn1    xi18.xn1  
 element  45:r1       45:r2       46:r1       46:r2       47:r1      
  r value   1.000e+12   1.000e+12   1.000e+12   1.000e+12   1.000e+12
  v drop     10.0000f     1.0000     10.0000f     0.          1.0000 
  current   1.000e-26     1.0000p   1.000e-26     0.          1.0000p
  power       0.          1.0000p     0.          0.          1.0000p

 subckt    xi18.xn1    xi18.xi9    xi18.xi9    xi18.xp1    xi18.xp1  
 element  47:r2       48:r1       48:r2       49:r1       49:r2      
  r value   1.000e+12   1.000e+12   1.000e+12   1.000e+12   1.000e+12
  v drop     10.0000f    10.0000f     0.          1.0000      1.0000 
  current   1.000e-26   1.000e-26     0.          1.0000p     1.0000p
  power       0.          0.          0.          1.0000p     1.0000p

 subckt    xi18.xi10   xi18.xi10   xi12.xn1    xi12.xn1    xi12.xi9  
 element  50:r1       50:r2       51:r1       51:r2       52:r1      
  r value   1.000e+12   1.000e+12   1.000e+12   1.000e+12   1.000e+12
  v drop      1.0000      1.0000     40.0000f    20.0000f    20.0000f
  current     1.0000p     1.0000p   4.000e-26   2.000e-26   2.000e-26
  power       1.0000p     1.0000p     0.          0.          0.     

 subckt    xi12.xi9    xi12.xp1    xi12.xp1    xi12.xi10   xi12.xi10 
 element  52:r2       53:r1       53:r2       54:r1       54:r2      
  r value   1.000e+12   1.000e+12   1.000e+12   1.000e+12   1.000e+12
  v drop      0.         40.0000f     1.0000     40.0000f     1.0000 
  current     0.        4.000e-26     1.0000p   4.000e-26     1.0000p
  power       0.          0.          1.0000p     0.          1.0000p

 subckt    xi22.xn1    xi22.xn1    xi22.xi9    xi22.xi9    xi22.xp1  
 element  55:r1       55:r2       56:r1       56:r2       57:r1      
  r value   1.000e+12   1.000e+12   1.000e+12   1.000e+12   1.000e+12
  v drop      1.0000    499.5005u   499.5005u     0.          1.0000 
  current     1.0000p   499.5005a   499.5005a     0.          1.0000p
  power       1.0000p   2.495e-19   2.495e-19     0.          1.0000p

 subckt    xi22.xp1    xi22.xi10   xi22.xi10 
 element  57:r2       58:r1       58:r2      
  r value   1.000e+12   1.000e+12   1.000e+12
  v drop      1.0000      1.0000      1.0000 
  current     1.0000p     1.0000p     1.0000p
  power       1.0000p     1.0000p     1.0000p


 **** voltage-controlled resistors


 subckt      xi15        xi32        xi3         xi5         xi2     
 element  14:g1       15:g1       16:g1       17:g1       18:g1      
  r value   1.000e+15   1.000e+15   1.000e+15    10.0000     10.0000 



 subckt      xi31        xi4         xi24        xswvcmp     xi30    
 element  19:g1       20:g1       21:g1       22:g1       23:g1      
  r value   1.000e+15   1.000e+15   1.000e+15   1.000e+15    10.0000 



 subckt      xi27        xi14        xi23.xp1    xi23.xn1    xi21.xp1
 element  24:g1       25:g1       27:g1       28:g1       29:g1      
  r value    10.0000    1.000e+15    10.0000    1.000e+15   1.000e+15



 subckt      xi21.xn1    xi20.xp1    xi20.xn1    xi16.xp1    xi16.xn1
 element  30:g1       31:g1       32:g1       33:g1       34:g1      
  r value    10.0000     10.0000    1.000e+15   1.000e+15    10.0000 



 subckt      xi17.xp1    xi17.xn1    xi10.xp1    xi10.xn1    xi9.xp1 
 element  35:g1       36:g1       37:g1       38:g1       39:g1      
  r value    10.0000    1.000e+15    10.0000    1.000e+15    10.0000 



 subckt      xi9.xn1     xi13.xp1    xi13.xn1    xi19.xp1    xi19.xn1
 element  40:g1       41:g1       42:g1       43:g1       44:g1      
